!
!
!
# GHz S RI R 50
       0.50000  9.009834527969360e-01  5.482397228479385e-02
       0.54774  6.406207680702209e-01 -4.250754714012146e-01
       0.59548  4.354836940765381e-01  7.467553764581680e-02
       0.64322  6.664763092994690e-01 -1.134567335247994e-01
       0.69095  5.323337912559509e-01 -1.813001036643982e-01
       0.73869  5.177077651023865e-01 -9.068436920642852e-02
       0.78643  5.585072636604309e-01 -9.985414147377014e-02
       0.83417  5.417843461036682e-01 -1.226914077997208e-01
       0.88191  5.203074812889099e-01 -1.108547747135162e-01
       0.92965  5.236855149269104e-01 -9.789196401834488e-02
       0.97739  5.258893966674805e-01 -1.022184938192368e-01
       1.02513  5.139908790588379e-01 -1.028714254498482e-01
       1.07286  5.102079510688782e-01 -9.147454053163528e-02
       1.12060  5.144163370132446e-01 -9.454660117626190e-02
       1.16834  4.978773891925812e-01 -9.242783486843110e-02
       1.21608  5.121683478355408e-01 -7.479748874902725e-02
       1.26382  5.017138719558716e-01 -1.050511375069618e-01
       1.31156  4.843350350856781e-01 -6.286865472793579e-02
       1.35930  5.180664658546448e-01 -8.087531477212906e-02
       1.40704  4.834493398666382e-01 -8.940785378217697e-02
       1.45477  4.899729788303375e-01 -6.213032081723213e-02
       1.50251  4.991213977336884e-01 -7.364273816347122e-02
       1.55025  4.861401617527008e-01 -7.302992045879364e-02
       1.59799  4.868211746215820e-01 -6.360227614641190e-02
       1.64573  4.883030056953430e-01 -6.411661207675934e-02
       1.69347  4.852650761604309e-01 -6.127547472715378e-02
       1.74121  4.860208928585052e-01 -5.973050370812416e-02
       1.78894  4.808602035045624e-01 -5.805106461048126e-02
       1.83668  4.817721247673035e-01 -4.932902753353119e-02
       1.88442  4.873269796371460e-01 -5.046482011675835e-02
       1.93216  4.825950562953949e-01 -5.278711020946503e-02
       1.97990  4.792163372039795e-01 -4.614940658211708e-02
       2.02764  4.827696979045868e-01 -4.184893146157264e-02
       2.07538  4.841410517692566e-01 -4.218151792883873e-02
       2.12312  4.829595386981964e-01 -4.059308394789696e-02
       2.17085  4.837743043899536e-01 -3.793358057737350e-02
       2.21859  4.847373664379120e-01 -3.731607645750046e-02
       2.26633  4.838814437389374e-01 -3.632142767310142e-02
       2.31407  4.833978712558746e-01 -3.384450823068619e-02
       2.36181  4.841799139976501e-01 -3.081848099827766e-02
       2.40955  4.870522618293762e-01 -2.915029600262642e-02
       2.45729  4.882543981075287e-01 -3.073241747915745e-02
       2.50503  4.860827922821045e-01 -3.044101037085056e-02
       2.55276  4.854830503463745e-01 -2.759365551173687e-02
       2.60050  4.861973524093628e-01 -2.537515573203564e-02
       2.64824  4.873944520950317e-01 -2.330186031758785e-02
       2.69598  4.892644584178925e-01 -2.230310998857021e-02
       2.74372  4.902789890766144e-01 -2.234831824898720e-02
       2.79146  4.902355372905731e-01 -2.242846228182316e-02
       2.83920  4.889186918735504e-01 -2.168782241642475e-02
       2.88693  4.878636002540588e-01 -1.848672702908516e-02
       2.93467  4.899749755859375e-01 -1.466397196054458e-02
       2.98241  4.935913085937500e-01 -1.397957187145948e-02
       3.03015  4.947284162044525e-01 -1.530872937291860e-02
       3.07789  4.937707483768463e-01 -1.517457515001297e-02
       3.12563  4.930998980998993e-01 -1.318105030804872e-02
       3.17337  4.936962425708771e-01 -1.037189550697803e-02
       3.22111  4.957152605056763e-01 -7.887578569352627e-03
       3.26884  4.983308613300323e-01 -6.642731837928295e-03
       3.31658  5.004633069038391e-01 -6.440646015107632e-03
       3.36432  5.016308426856995e-01 -6.601054221391678e-03
       3.41206  5.017138719558716e-01 -6.162987556308508e-03
       3.45980  5.018102526664734e-01 -4.028321243822574e-03
       3.50754  5.039159655570984e-01 -1.088387682102621e-03
       3.55528  5.075805187225342e-01  1.338291622232646e-04
       3.60302  5.103063583374023e-01 -4.621682164724916e-04
       3.65075  5.114583373069763e-01 -8.532391511835158e-04
       3.69849  5.124224424362183e-01 -5.312963912729174e-05
       3.74623  5.142292380332947e-01  1.137558021582663e-03
       3.79397  5.165211558341980e-01  1.943330746144056e-03
       3.84171  5.189753770828247e-01  2.471432089805603e-03
       3.88945  5.216756463050842e-01  2.532925922423601e-03
       3.93719  5.239886641502380e-01  1.864291611127555e-03
       3.98492  5.253682732582092e-01  1.408051000908017e-03
       4.03266  5.269181132316589e-01  1.977163366973400e-03
       4.08040  5.296367406845093e-01  2.466293983161450e-03
       4.12814  5.326009988784790e-01  1.777923898771405e-03
       4.17588  5.347040891647339e-01  4.916244652122259e-04
       4.22362  5.361176133155823e-01 -3.939593734685332e-04
       4.27136  5.376021862030029e-01 -6.974579300731421e-04
       4.31910  5.395544767379761e-01 -8.413633331656456e-04
       4.36683  5.419381260871887e-01 -1.264587626792490e-03
       4.41457  5.444480776786804e-01 -2.299688057973981e-03
       4.46231  5.464807748794556e-01 -3.910939674824476e-03
       4.51005  5.477724075317383e-01 -5.399434361606836e-03
       4.55779  5.489130020141602e-01 -6.293680984526873e-03
       4.60553  5.504343509674072e-01 -6.924280896782875e-03
       4.65327  5.523072481155396e-01 -7.757201790809631e-03
       4.70100  5.542148351669312e-01 -9.007275104522706e-03
       4.74874  5.558104515075684e-01 -1.055640075355768e-02
       4.79648  5.570035576820374e-01 -1.205093599855900e-02
       4.84422  5.580556988716125e-01 -1.322786416858435e-02
       4.89196  5.593453049659729e-01 -1.421162858605385e-02
       4.93970  5.608818531036377e-01 -1.545249391347170e-02
       4.98744  5.621725916862488e-01 -1.707800105214119e-02
       5.03518  5.629822611808777e-01 -1.859858632087708e-02
       5.08291  5.637217164039612e-01 -1.968744583427906e-02
       5.13065  5.647722482681274e-01 -2.060152031481266e-02
       5.17839  5.660714507102966e-01 -2.171972580254078e-02
       5.22613  5.673087835311890e-01 -2.317139692604542e-02
       5.27387  5.682063102722168e-01 -2.478260546922684e-02
       5.32161  5.687484145164490e-01 -2.620848082005978e-02
       5.36935  5.692424178123474e-01 -2.723651751875878e-02
       5.41709  5.700442790985107e-01 -2.804865129292012e-02
       5.46482  5.711327195167542e-01 -2.905369363725186e-02
       5.51256  5.721337795257568e-01 -3.037426061928272e-02
       5.56030  5.728244781494141e-01 -3.173249587416649e-02
       5.60804  5.733546018600464e-01 -3.285783156752586e-02
       5.65578  5.739859342575073e-01 -3.376900032162666e-02
       5.70352  5.748034119606018e-01 -3.467080369591713e-02
       5.75126  5.756849646568298e-01 -3.570575267076492e-02
       5.79900  5.764747858047485e-01 -3.683654591441154e-02
       5.84673  5.771347880363464e-01 -3.792687132954598e-02
       5.89447  5.777540802955627e-01 -3.887816146016121e-02
       5.94221  5.784680247306824e-01 -3.970852866768837e-02
       5.98995  5.793383121490479e-01 -4.055487737059593e-02
       6.03769  5.802623033523560e-01 -4.154760017991066e-02
       6.08543  5.810666084289551e-01 -4.264359921216964e-02
       6.13317  5.817216038703918e-01 -4.365849494934082e-02
       6.18090  5.823870897293091e-01 -4.448965936899185e-02
       6.22864  5.832200646400452e-01 -4.523792862892151e-02
       6.27638  5.841982960700989e-01 -4.607801511883736e-02
       6.32412  5.851707458496094e-01 -4.706089571118355e-02
       6.37186  5.860381722450256e-01 -4.808845743536949e-02
       6.41960  5.868344902992249e-01 -4.904559254646301e-02
       6.46734  5.876592993736267e-01 -4.990676790475845e-02
       6.51508  5.885779857635498e-01 -5.073183402419090e-02
       6.56281  5.895786285400391e-01 -5.159642547369003e-02
       6.61055  5.906004905700684e-01 -5.252486467361450e-02
       6.65829  5.916029810905457e-01 -5.347939580678940e-02
       6.70603  5.926065444946289e-01 -5.441467463970184e-02
       6.75377  5.936603546142578e-01 -5.533812567591667e-02
       6.80151  5.947738885879517e-01 -5.630264803767204e-02
       6.84925  5.958977937698364e-01 -5.734038352966309e-02
       6.89699  5.969765782356262e-01 -5.841711908578873e-02
       6.94472  5.980151295661926e-01 -5.945916473865509e-02
       6.99246  5.990914702415466e-01 -6.042876467108727e-02
       7.04020  6.002917289733887e-01 -6.138132885098457e-02
       7.08794  6.016128063201904e-01 -6.243583187460899e-02
       7.13568  6.029400825500488e-01 -6.365416198968887e-02
       7.18342  6.041635274887085e-01 -6.496387720108032e-02
       7.23116  6.052963137626648e-01 -6.624297052621841e-02
       7.27889  6.064378619194031e-01 -6.745247542858124e-02
       7.32663  6.076579689979553e-01 -6.864902377128601e-02
       7.37437  6.089488267898560e-01 -6.990670412778854e-02
       7.42211  6.102566719055176e-01 -7.125774770975113e-02
       7.46985  6.115299463272095e-01 -7.268413901329041e-02
       7.51759  6.127514243125916e-01 -7.413844764232635e-02
       7.56533  6.139501333236694e-01 -7.557988911867142e-02
       7.61307  6.151773929595947e-01 -7.701479643583298e-02
       7.66080  6.164494752883911e-01 -7.849471271038055e-02
       7.70854  6.177266836166382e-01 -8.005632460117340e-02
       7.75628  6.189612746238708e-01 -8.168432116508484e-02
       7.80402  6.201397180557251e-01 -8.333844691514969e-02
       7.85176  6.212762594223022e-01 -8.498630672693253e-02
       7.89950  6.223993897438049e-01 -8.660928905010223e-02
       7.94724  6.235510110855103e-01 -8.820766210556030e-02
       7.99498  6.247730851173401e-01 -8.982247859239578e-02
       8.04271  6.260548233985901e-01 -9.153278172016144e-02
       8.09045  6.273047327995300e-01 -9.337712079286576e-02
       8.13819  6.284387111663818e-01 -9.528607130050660e-02
       8.18593  6.294783949851990e-01 -9.715595841407776e-02
       8.23367  6.305125355720520e-01 -9.895714372396470e-02
       8.28141  6.316031217575073e-01 -1.007372066378593e-01
       8.32915  6.327499151229858e-01 -1.025610640645027e-01
       8.37688  6.339104175567627e-01 -1.044615656137466e-01
       8.42462  6.350430250167847e-01 -1.064255461096764e-01
       8.47236  6.361435055732727e-01 -1.084214076399803e-01
       8.52010  6.372328996658325e-01 -1.104463189840317e-01
       8.56784  6.383034586906433e-01 -1.125234067440033e-01
       8.61558  6.393184065818787e-01 -1.146414726972580e-01
       8.66332  6.402772068977356e-01 -1.167507916688919e-01
       8.71105  6.412295699119568e-01 -1.188270971179008e-01
       8.75879  6.422244906425476e-01 -1.209011450409889e-01
       8.80653  6.432671546936035e-01 -1.230333223938942e-01
       8.85427  6.443108320236206e-01 -1.252697557210922e-01
       8.90201  6.452825069427490e-01 -1.276027113199234e-01
       8.94975  6.461409926414490e-01 -1.299603432416916e-01
       8.99749  6.469310522079468e-01 -1.322626769542694e-01
       9.04523  6.477493047714233e-01 -1.345164030790329e-01
       9.09297  6.486251950263977e-01 -1.368131935596466e-01
       9.14070  6.494878530502319e-01 -1.392095685005188e-01
       9.18844  6.502658724784851e-01 -1.416658610105514e-01
       9.23618  6.509650945663452e-01 -1.441092491149902e-01
       9.28392  6.516485214233398e-01 -1.465158462524414e-01
       9.33166  6.523640751838684e-01 -1.489323675632477e-01
       9.37940  6.530873179435730e-01 -1.514265835285187e-01
       9.42714  6.537374854087830e-01 -1.540054380893707e-01
       9.47487  6.542695760726929e-01 -1.565891653299332e-01
       9.52261  6.547428965568542e-01 -1.590989232063294e-01
       9.57035  6.552551388740540e-01 -1.615587025880814e-01
       9.61809  6.558225750923157e-01 -1.640640944242478e-01
       9.66583  6.563712954521179e-01 -1.666666120290756e-01
       9.71357  6.568288207054138e-01 -1.693281680345535e-01
       9.76131  6.571934819221497e-01 -1.719754934310913e-01
       9.80904  6.575216650962830e-01 -1.745752692222595e-01
       9.85678  6.578633785247803e-01 -1.771593689918518e-01
       9.90452  6.582099795341492e-01 -1.797825992107391e-01
       9.95226  6.585074067115784e-01 -1.824557185173035e-01
      10.00000  6.587267518043518e-01 -1.851289868354797e-01
